! TOUCHSTONE file generated by CST MICROWAVE STUDIO
! Date and time: Wed Sep 30 10:36:49 2020
! Project name: Emma Lung Lower Right.cst
! Header version: 2018
! Port assignment regex: !\s*Touchstone port\s*([0-9]+)\s*=\s*(CST MWS port|CST DS port)\s*([0-9]+|Zmin|Zmax)\s*\(\"(.*)\"\)(\s*mode\s*([0-9]+))?.*
! Touchstone port assignment:
! Touchstone port 1 = CST MWS port 1 ("")
! Touchstone port 2 = CST MWS port 2 ("")
! Touchstone port 3 = CST MWS port 3 ("")
# GHz S RI R 50
5                       0.841562      0.00432971        -0.014886      0.00268516       0.00114642     0.000224536
                      -0.0148575      0.00265691          0.81475        0.100636      0.000740477     0.000146541
                      0.00111375     0.000224145      0.000740523     0.000121742          0.65125       -0.088795
5.001                   0.841694      0.00400144        -0.014827      0.00280614       0.00115487     0.000200923
                      -0.0148005      0.00277657         0.815543         0.10011      0.000745526     0.000131155
                      0.00112236     0.000202505       0.00074412     0.000106631         0.650073      -0.0873127
5.002                   0.841824      0.00367216       -0.0147673       0.0029262       0.00116276     0.000176926
                       -0.014743      0.00289544         0.816326        0.099581      0.000750201     0.000115562
                      0.00113053     0.000180461      0.000747374     9.13938e-05          0.64891      -0.0858076
5.003                   0.841952      0.00334188       -0.0147071      0.00304534       0.00117007     0.000152559
                      -0.0146849      0.00301353         0.817101       0.0990505      0.000754491     9.97719e-05
                      0.00113823     0.000158021      0.000750279     7.60389e-05         0.647762      -0.0842794
5.004                   0.842077      0.00301059       -0.0146464      0.00316355       0.00117678     0.000127841
                      -0.0146264      0.00313083         0.817868       0.0985181      0.000758387     8.37961e-05
                      0.00114545     0.000135194      0.000752832     6.05747e-05         0.646629      -0.0827284
5.005                     0.8422      0.00267828       -0.0145851      0.00328086       0.00118287     0.000102788
                      -0.0145673      0.00324737         0.818626       0.0979841       0.00076188     6.76464e-05
                      0.00115216     0.000111992      0.000755027     4.50095e-05         0.645512      -0.0811545
5.006                    0.84232      0.00234497       -0.0145232      0.00339725       0.00118833     7.74189e-05
                      -0.0145076      0.00336313         0.819376       0.0974483      0.000764962      5.1335e-05
                      0.00115835     8.84262e-05      0.000756858     2.93524e-05         0.644412       -0.079558
5.007                   0.842439      0.00201065       -0.0144608      0.00351275       0.00119313     5.17527e-05
                      -0.0144474      0.00347813         0.820118       0.0969108      0.000767625     3.48747e-05
                        0.001164     6.45094e-05      0.000758323     1.36123e-05          0.64333       -0.077939
5.008                   0.842554      0.00167531       -0.0143979      0.00362734       0.00119727     2.58097e-05
                      -0.0143868      0.00359237         0.820852       0.0963719       0.00076986     1.82784e-05
                      0.00116908     4.02555e-05      0.000759415    -2.20139e-06         0.642264      -0.0762975
5.009                   0.842668      0.00133896       -0.0143345      0.00374104       0.00120073    -3.89134e-07
                      -0.0143255      0.00370585         0.821578       0.0958314      0.000771661     1.55969e-06
                      0.00117357     1.56797e-05      0.000760132    -1.80791e-05         0.641218      -0.0746339
5.01                    0.842779      0.00100159       -0.0142705      0.00385384        0.0012035    -2.68221e-05
                      -0.0142638      0.00381856         0.822296       0.0952894      0.000773021    -1.52675e-05
                      0.00117747    -9.20211e-06      0.000760469    -3.40109e-05         0.640189      -0.0729481
5.011                   0.842888     0.000663204       -0.0142061      0.00396575       0.00120555    -5.34667e-05
                      -0.0142015      0.00393052         0.823006        0.094746      0.000773934    -3.21891e-05
                      0.00118074    -3.43728e-05      0.000760422    -4.99871e-05         0.639181      -0.0712404
5.012                   0.842995     0.000323795       -0.0141411      0.00407679       0.00120689    -8.02998e-05
                      -0.0141387      0.00404172         0.823709       0.0942012      0.000774394    -4.91904e-05
                      0.00118338    -5.98142e-05       0.00075999     -6.5997e-05         0.638192      -0.0695109
5.013                   0.843099    -1.66375e-05       -0.0140757      0.00418694       0.00120749    -0.000107297
                      -0.0140753      0.00415217         0.824404       0.0936551      0.000774397    -6.62565e-05
                      0.00118536    -8.55068e-05      0.000759167    -8.20303e-05         0.637224        -0.06776
5.014                   0.843201    -0.000358096       -0.0140098      0.00429623       0.00120734    -0.000134435
                      -0.0140115      0.00426187         0.825092       0.0931077      0.000773937    -8.33722e-05
                      0.00118667    -0.000111431      0.000757952     -9.8076e-05         0.636277      -0.0659879
5.015                     0.8433    -0.000700583       -0.0139434      0.00440464       0.00120645    -0.000161686
                      -0.0139471      0.00437081         0.825772       0.0925591      0.000773012    -0.000100522
                      0.00118729    -0.000137564      0.000756343    -0.000114123         0.635352      -0.0641947
5.016                   0.843397      -0.0010441       -0.0138765      0.00451219       0.00120479    -0.000189027
                      -0.0138822        0.004479         0.826445       0.0920092      0.000771618     -0.00011769
                       0.0011872    -0.000163885      0.000754336    -0.000130161         0.634449      -0.0623808
5.017                   0.843492     -0.00138865       -0.0138092      0.00461888       0.00120236     -0.00021643
                      -0.0138168      0.00458644         0.827111       0.0914581      0.000769751    -0.000134861
                      0.00118641    -0.000190371      0.000751932    -0.000146178         0.633569      -0.0605464
5.018                   0.843584     -0.00173423       -0.0137415      0.00472472       0.00119915    -0.000243869
                      -0.0137509      0.00469312          0.82777       0.0909059      0.000767412    -0.000152019
                      0.00118488    -0.000216998      0.000749127    -0.000162163         0.632713      -0.0586918
5.019                   0.843674     -0.00208085       -0.0136733       0.0048297       0.00119516    -0.000271317
                      -0.0136844      0.00479905         0.828422       0.0903526      0.000764598    -0.000169146
                      0.00118261    -0.000243739      0.000745922    -0.000178103          0.63188      -0.0568175
5.02                    0.843762     -0.00242851       -0.0136046      0.00493385       0.00119038    -0.000298745
                      -0.0136175      0.00490423         0.829067       0.0897982      0.000761308    -0.000186228
                      0.00117958    -0.000270571      0.000742316    -0.000193988         0.631072      -0.0549236
5.021                   0.843847     -0.00277721       -0.0135356      0.00503715       0.00118482    -0.000326126
                        -0.01355      0.00500865         0.829705       0.0892427      0.000757543    -0.000203247
                      0.00117579    -0.000297466      0.000738309    -0.000209804         0.630289      -0.0530107
5.022                    0.84393     -0.00312694       -0.0134661      0.00513962       0.00117846    -0.000353431
                      -0.0134821      0.00511232         0.830336       0.0886861      0.000753304    -0.000220186
                      0.00117123    -0.000324397        0.0007339    -0.000225541         0.629532       -0.051079
5.023                   0.844011     -0.00347772       -0.0133962      0.00524126        0.0011713    -0.000380633
                      -0.0134136      0.00521524         0.830961       0.0881285      0.000748591    -0.000237031
                      0.00116589    -0.000351337      0.000729091    -0.000241185         0.628801      -0.0491289
5.024                   0.844089     -0.00382954        -0.013326      0.00534208       0.00116336    -0.000407702
                      -0.0133447       0.0053174         0.831579         0.08757      0.000743408    -0.000253763
                      0.00115976    -0.000378256      0.000723883    -0.000256725         0.628097      -0.0471608
5.025                   0.844164      -0.0041824       -0.0132553      0.00544208       0.00115462     -0.00043461
                      -0.0132753       0.0054188          0.83219       0.0870104      0.000737757    -0.000270366
                      0.00115283    -0.000405126      0.000718278    -0.000272149         0.627421      -0.0451753
5.026                   0.844237      -0.0045363       -0.0131843      0.00554127       0.00114509    -0.000461327
                      -0.0132053      0.00551945         0.832795       0.0864499      0.000731641    -0.000286825
                      0.00114511    -0.000431917      0.000712277    -0.000287443         0.626772      -0.0431727
5.027                   0.844308     -0.00489124       -0.0131128      0.00563965       0.00113478    -0.000487825
                       -0.013135      0.00561934         0.833393       0.0858884      0.000725065    -0.000303122
                      0.00113659    -0.000458599      0.000705883    -0.000302596         0.626152      -0.0411535
5.028                   0.844376     -0.00524722       -0.0130411      0.00573723       0.00112368    -0.000514075
                      -0.0130641      0.00571847         0.833985        0.085326      0.000718034    -0.000319242
                      0.00112726    -0.000485142        0.0006991    -0.000317594          0.62556      -0.0391182
5.029                   0.844442     -0.00560423       -0.0129689      0.00583403       0.00111181    -0.000540048
                      -0.0129928      0.00581685         0.834571       0.0847626      0.000710553    -0.000335168
                      0.00111713    -0.000511515       0.00069193    -0.000332427         0.624998      -0.0370674
5.03                    0.844505     -0.00596228       -0.0128964      0.00593003       0.00109918    -0.000565715
                       -0.012921      0.00591446         0.835151       0.0841984      0.000702629    -0.000350886
                       0.0011062    -0.000537687      0.000684377    -0.000347082         0.624467      -0.0350015
5.031                   0.844566     -0.00632136       -0.0128235      0.00602525       0.00108579    -0.000591049
                      -0.0128488      0.00601132         0.835724       0.0836332      0.000694268    -0.000366379
                      0.00109448    -0.000563627      0.000676447    -0.000361545         0.623965      -0.0329211
5.032                   0.844624     -0.00668147       -0.0127503       0.0061197       0.00107164    -0.000616022
                      -0.0127761      0.00610743         0.836291       0.0830672      0.000685478    -0.000381631
                      0.00108195    -0.000589304      0.000668143    -0.000375806         0.623495      -0.0308267
5.033                   0.844679      -0.0070426       -0.0126768      0.00621339       0.00105677    -0.000640605
                       -0.012703      0.00620277         0.836853       0.0825003      0.000676268    -0.000396629
                      0.00106864    -0.000614686      0.000659472    -0.000389851         0.623056      -0.0287189
5.034                   0.844732     -0.00740475       -0.0126029       0.0063063       0.00104117     -0.00066477
                      -0.0126294      0.00629737         0.837408       0.0819325      0.000666646    -0.000411357
                      0.00105454    -0.000639743      0.000650439     -0.00040367         0.622649      -0.0265985
5.035                   0.844783     -0.00776791       -0.0125287      0.00639847       0.00102485    -0.000688493
                      -0.0125554       0.0063912         0.837957       0.0813638      0.000656621    -0.000425802
                      0.00103967    -0.000664443      0.000641051     -0.00041725         0.622274      -0.0244658
5.036                   0.844831     -0.00813209       -0.0124542      0.00648989       0.00100785    -0.000711745
                       -0.012481      0.00648428         0.838501       0.0807943      0.000646205    -0.000439949
                      0.00102404    -0.000688755      0.000631314     -0.00043058         0.621932      -0.0223216
5.037                   0.844876     -0.00849726       -0.0123793      0.00658057       0.00099016    -0.000734502
                      -0.0124062      0.00657661         0.839038       0.0802239      0.000635406    -0.000453785
                      0.00100765     -0.00071265      0.000621236    -0.000443649         0.621623      -0.0201666
5.038                   0.844918     -0.00886343       -0.0123042      0.00667052       0.00097181    -0.000756737
                       -0.012331      0.00666819          0.83957       0.0796527      0.000624238    -0.000467297
                     0.000990516    -0.000736096      0.000610825    -0.000456444         0.621347      -0.0180014
5.039                   0.844958     -0.00923059       -0.0122288      0.00675974      0.000952816    -0.000778427
                      -0.0122554      0.00675902         0.840096       0.0790806      0.000612711    -0.000480472
                      0.00097266    -0.000759064      0.000600088    -0.000468956         0.621106      -0.0158267
5.04                    0.844996     -0.00959872        -0.012153      0.00684824      0.000933197    -0.000799549
                      -0.0121794       0.0068491         0.840617       0.0785077      0.000600837    -0.000493299
                     0.000954092    -0.000781525      0.000589036    -0.000481174         0.620899      -0.0136432
5.041                    0.84503     -0.00996783        -0.012077      0.00693604      0.000912974    -0.000820077
                       -0.012103      0.00693844         0.841131        0.077934       0.00058863    -0.000505766
                     0.000934831     -0.00080345      0.000577676    -0.000493087         0.620727      -0.0114516
5.042                   0.845062      -0.0103379       -0.0120006      0.00702313      0.000892167    -0.000839992
                      -0.0120262      0.00702703         0.841641       0.0773594      0.000576102    -0.000517861
                     0.000914893    -0.000824811      0.000566018    -0.000504686         0.620589     -0.00925268
5.043                   0.845091      -0.0107089        -0.011924      0.00710952      0.000870798    -0.000859272
                      -0.0119491      0.00711489         0.842144        0.076784      0.000563268    -0.000529576
                     0.000894301    -0.000845581      0.000554073     -0.00051596         0.620487     -0.00704716
5.044                   0.845117      -0.0110809       -0.0118471      0.00719522      0.000848892    -0.000877896
                      -0.0118716        0.007202         0.842642       0.0762077       0.00055014    -0.000540899
                     0.000873072    -0.000865733      0.000541851    -0.000526901         0.620421      -0.0048357
5.045                   0.845141      -0.0114537       -0.0117699      0.00728024      0.000826472    -0.000895845
                      -0.0117937      0.00728839         0.843135       0.0756307      0.000536735    -0.000551822
                     0.000851232    -0.000885242      0.000529363      -0.0005375          0.62039     -0.00261926
5.046                   0.845162      -0.0118275       -0.0116925      0.00736458      0.000803562    -0.000913101
                      -0.0117155      0.00737404         0.843622       0.0750528      0.000523066    -0.000562336
                     0.000828801    -0.000904084      0.000516619    -0.000547747         0.620396    -0.000398488
5.047                    0.84518      -0.0122022       -0.0116147      0.00744826      0.000780189    -0.000929647
                      -0.0116369      0.00745897         0.844103       0.0744741      0.000509148    -0.000572434
                     0.000805807    -0.000922234      0.000503632    -0.000557636         0.620438      0.00182578
5.048                   0.845195      -0.0125778       -0.0115367      0.00753128      0.000756379    -0.000945466
                      -0.0115581      0.00754318          0.84458       0.0738946      0.000494997    -0.000582107
                     0.000782274     -0.00093967      0.000490413    -0.000567158         0.620516       0.0040528
5.049                   0.845207      -0.0129543       -0.0114584      0.00761365      0.000732159    -0.000960544
                      -0.0114788      0.00762668          0.84505       0.0733142      0.000480629     -0.00059135
                      0.00075823     -0.00095637      0.000476974    -0.000576306         0.620631      0.00628164
5.05                    0.845216      -0.0133316       -0.0113799      0.00769537      0.000707556    -0.000974867
                      -0.0113993      0.00770945         0.845516       0.0727331      0.000466059    -0.000600157
                     0.000733702    -0.000972316      0.000463328    -0.000585074         0.620783      0.00851162
5.051                   0.845223      -0.0137098       -0.0113011      0.00777645      0.000682599    -0.000988422
                      -0.0113195      0.00779152         0.845976       0.0721511      0.000451304    -0.000608522
                     0.000708719    -0.000987487      0.000449489    -0.000593454         0.620972       0.0107417
5.052                   0.845227      -0.0140888        -0.011222      0.00785691      0.000657317      -0.0010012
                      -0.0112393      0.00787289         0.846431       0.0715684      0.000436378    -0.000616441
                     0.000683311     -0.00100187      0.000435467    -0.000601443         0.621198       0.0129713
5.053                   0.845227      -0.0144686       -0.0111427      0.00793674      0.000631738     -0.00101318
                      -0.0111588      0.00795356         0.846881       0.0709848        0.0004213    -0.000623909
                     0.000657509     -0.00101544      0.000421278    -0.000609034         0.621462       0.0151994
5.054                   0.845225      -0.0148493       -0.0110631      0.00801595      0.000605893     -0.00102437
                      -0.0110781      0.00803354         0.847325       0.0704004      0.000406085    -0.000630925
                     0.000631344     -0.00102818      0.000406934    -0.000616222         0.621762       0.0174251
5.055                    0.84522      -0.0152306       -0.0109832      0.00809456      0.000579811     -0.00103476
                       -0.010997      0.00811284         0.847764       0.0698152       0.00039075    -0.000637485
                     0.000604848      -0.0010401      0.000392449    -0.000623004           0.6221       0.0196477
5.056                   0.845212      -0.0156128       -0.0109031      0.00817256      0.000553523     -0.00104433
